# MHz S MA R 50   
0.3 0.04 180 0.5 0 0.04 180 0.5 0
4.54985 0.04 179 0.5 -1 0.04 179 0.5 -1
8.7997 0.04 178 0.5 -2 0.04 178 0.5 -2
13.04955 0.04 177 0.5 -3 0.04 177 0.5 -3
17.2994 0.04 176 0.5 -4 0.04 176 0.5 -4
21.54925 0.04 175 0.5 -5 0.04 175 0.5 -5
25.7991 0.04 174 0.5 -6 0.04 174 0.5 -6
30.04895 0.04 173 0.5 -7 0.04 173 0.5 -7
34.2988 0.04 172 0.5 -8 0.04 172 0.5 -8
38.54865 0.04 171 0.5 -9 0.04 171 0.5 -9
42.7985 0.04 170 0.5 -10 0.04 170 0.5 -10
47.04835 0.04 169 0.5 -11 0.04 169 0.5 -11
51.2982 0.04 168 0.5 -12 0.04 168 0.5 -12
55.54805 0.04 167 0.5 -13 0.04 167 0.5 -13
59.7979 0.04 166 0.5 -14 0.04 166 0.5 -14
64.04775 0.04 165 0.5 -15 0.04 165 0.5 -15
68.2976 0.04 164 0.5 -16 0.04 164 0.5 -16
72.54745 0.04 163 0.5 -17 0.04 163 0.5 -17
76.7973 0.04 162 0.5 -18 0.04 162 0.5 -18
81.04715 0.04 161 0.5 -19 0.04 161 0.5 -19
85.297 0.04 160 0.5 -20 0.04 160 0.5 -20
89.54685 0.04 159 0.5 -21 0.04 159 0.5 -21
93.7967 0.04 158 0.5 -22 0.04 158 0.5 -22
98.04655 0.04 157 0.5 -23 0.04 157 0.5 -23
102.2964 0.04 156 0.5 -24 0.04 156 0.5 -24
106.54625 0.04 155 0.5 -25 0.04 155 0.5 -25
110.7961 0.04 154 0.5 -26 0.04 154 0.5 -26
115.04595 0.04 153 0.5 -27 0.04 153 0.5 -27
119.2958 0.04 152 0.5 -28 0.04 152 0.5 -28
123.54565 0.04 151 0.5 -29 0.04 151 0.5 -29
127.7955 0.04 150 0.5 -30 0.04 150 0.5 -30
132.04535 0.04 149 0.5 -31 0.04 149 0.5 -31
136.2952 0.04 148 0.5 -32 0.04 148 0.5 -32
140.54505 0.04 147 0.5 -33 0.04 147 0.5 -33
144.7949 0.04 146 0.5 -34 0.04 146 0.5 -34
149.04475 0.04 145 0.5 -35 0.04 145 0.5 -35
153.2946 0.04 144 0.5 -36 0.04 144 0.5 -36
157.54445 0.04 143 0.5 -37 0.04 143 0.5 -37
161.7943 0.04 142 0.5 -38 0.04 142 0.5 -38
166.04415 0.04 141 0.5 -39 0.04 141 0.5 -39
170.294 0.04 140 0.5 -40 0.04 140 0.5 -40
174.54385 0.04 139 0.5 -41 0.04 139 0.5 -41
178.7937 0.04 138 0.5 -42 0.04 138 0.5 -42
183.04355 0.04 137 0.5 -43 0.04 137 0.5 -43
187.2934 0.04 136 0.5 -44 0.04 136 0.5 -44
191.54325 0.04 135 0.5 -45 0.04 135 0.5 -45
195.7931 0.04 134 0.5 -46 0.04 134 0.5 -46
200.04295 0.04 133 0.5 -47 0.04 133 0.5 -47
204.2928 0.04 132 0.5 -48 0.04 132 0.5 -48
208.54265 0.04 131 0.5 -49 0.04 131 0.5 -49
212.7925 0.04 130 0.5 -50 0.04 130 0.5 -50
217.04235 0.04 129 0.5 -51 0.04 129 0.5 -51
221.2922 0.04 128 0.5 -52 0.04 128 0.5 -52
225.54205 0.04 127 0.5 -53 0.04 127 0.5 -53
229.7919 0.04 126 0.5 -54 0.04 126 0.5 -54
234.04175 0.04 125 0.5 -55 0.04 125 0.5 -55
238.2916 0.04 124 0.5 -56 0.04 124 0.5 -56
242.54145 0.04 123 0.5 -57 0.04 123 0.5 -57
246.7913 0.04 122 0.5 -58 0.04 122 0.5 -58
251.04115 0.04 121 0.5 -59 0.04 121 0.5 -59
255.291 0.04 120 0.5 -60 0.04 120 0.5 -60
259.54085 0.04 119 0.5 -61 0.04 119 0.5 -61
263.7907 0.04 118 0.5 -62 0.04 118 0.5 -62
268.04055 0.04 117 0.5 -63 0.04 117 0.5 -63
272.2904 0.04 116 0.5 -64 0.04 116 0.5 -64
276.54025 0.04 115 0.5 -65 0.04 115 0.5 -65
280.7901 0.04 114 0.5 -66 0.04 114 0.5 -66
285.03995 0.04 113 0.5 -67 0.04 113 0.5 -67
289.2898 0.04 112 0.5 -68 0.04 112 0.5 -68
293.53965 0.04 111 0.5 -69 0.04 111 0.5 -69
297.7895 0.04 110 0.5 -70 0.04 110 0.5 -70
302.03935 0.04 109 0.5 -71 0.04 109 0.5 -71
306.2892 0.04 108 0.5 -72 0.04 108 0.5 -72
310.53905 0.04 107 0.5 -73 0.04 107 0.5 -73
314.7889 0.04 106 0.5 -74 0.04 106 0.5 -74
319.03875 0.04 105 0.5 -75 0.04 105 0.5 -75
323.2886 0.04 104 0.5 -76 0.04 104 0.5 -76
327.53845 0.04 103 0.5 -77 0.04 103 0.5 -77
331.7883 0.04 102 0.5 -78 0.04 102 0.5 -78
336.03815 0.04 101 0.5 -79 0.04 101 0.5 -79
340.288 0.04 100 0.5 -80 0.04 100 0.5 -80
344.53785 0.04 99 0.5 -81 0.04 99 0.5 -81
348.7877 0.04 98 0.5 -82 0.04 98 0.5 -82
353.03755 0.04 97 0.5 -83 0.04 97 0.5 -83
357.2874 0.04 96 0.5 -84 0.04 96 0.5 -84
361.53725 0.04 95 0.5 -85 0.04 95 0.5 -85
365.7871 0.04 94 0.5 -86 0.04 94 0.5 -86
370.03695 0.04 93 0.5 -87 0.04 93 0.5 -87
374.2868 0.04 92 0.5 -88 0.04 92 0.5 -88
378.53665 0.04 91 0.5 -89 0.04 91 0.5 -89
382.7865 0.04 90 0.5 -90 0.04 90 0.5 -90
387.03635 0.04 89 0.5 -91 0.04 89 0.5 -91
391.2862 0.04 88 0.5 -92 0.04 88 0.5 -92
395.53605 0.04 87 0.5 -93 0.04 87 0.5 -93
399.7859 0.04 86 0.5 -94 0.04 86 0.5 -94
404.03575 0.04 85 0.5 -95 0.04 85 0.5 -95
408.2856 0.04 84 0.5 -96 0.04 84 0.5 -96
412.53545 0.04 83 0.5 -97 0.04 83 0.5 -97
416.7853 0.04 82 0.5 -98 0.04 82 0.5 -98
421.03515 0.04 81 0.5 -99 0.04 81 0.5 -99
425.285 0.04 80 0.5 -100 0.04 80 0.5 -100
429.53485 0.04 79 0.5 -101 0.04 79 0.5 -101
433.7847 0.04 78 0.5 -102 0.04 78 0.5 -102
438.03455 0.04 77 0.5 -103 0.04 77 0.5 -103
442.2844 0.04 76 0.5 -104 0.04 76 0.5 -104
446.53425 0.04 75 0.5 -105 0.04 75 0.5 -105
450.7841 0.04 74 0.5 -106 0.04 74 0.5 -106
455.03395 0.04 73 0.5 -107 0.04 73 0.5 -107
459.2838 0.04 72 0.5 -108 0.04 72 0.5 -108
463.53365 0.04 71 0.5 -109 0.04 71 0.5 -109
467.7835 0.04 70 0.5 -110 0.04 70 0.5 -110
472.03335 0.04 69 0.5 -111 0.04 69 0.5 -111
476.2832 0.04 68 0.5 -112 0.04 68 0.5 -112
480.53305 0.04 67 0.5 -113 0.04 67 0.5 -113
484.7829 0.04 66 0.5 -114 0.04 66 0.5 -114
489.03275 0.04 65 0.5 -115 0.04 65 0.5 -115
493.2826 0.04 64 0.5 -116 0.04 64 0.5 -116
497.53245 0.04 63 0.5 -117 0.04 63 0.5 -117
501.7823 0.04 62 0.5 -118 0.04 62 0.5 -118
506.03215 0.04 61 0.5 -119 0.04 61 0.5 -119
510.282 0.04 60 0.5 -120 0.04 60 0.5 -120
514.53185 0.04 59 0.5 -121 0.04 59 0.5 -121
518.7817 0.04 58 0.5 -122 0.04 58 0.5 -122
523.03155 0.04 57 0.5 -123 0.04 57 0.5 -123
527.2814 0.04 56 0.5 -124 0.04 56 0.5 -124
531.53125 0.04 55 0.5 -125 0.04 55 0.5 -125
535.7811 0.04 54 0.5 -126 0.04 54 0.5 -126
540.03095 0.04 53 0.5 -127 0.04 53 0.5 -127
544.2808 0.04 52 0.5 -128 0.04 52 0.5 -128
548.53065 0.04 51 0.5 -129 0.04 51 0.5 -129
552.7805 0.04 50 0.5 -130 0.04 50 0.5 -130
557.03035 0.04 49 0.5 -131 0.04 49 0.5 -131
561.2802 0.04 48 0.5 -132 0.04 48 0.5 -132
565.53005 0.04 47 0.5 -133 0.04 47 0.5 -133
569.7799 0.04 46 0.5 -134 0.04 46 0.5 -134
574.02975 0.04 45 0.5 -135 0.04 45 0.5 -135
578.2796 0.04 44 0.5 -136 0.04 44 0.5 -136
582.52945 0.04 43 0.5 -137 0.04 43 0.5 -137
586.7793 0.04 42 0.5 -138 0.04 42 0.5 -138
591.02915 0.04 41 0.5 -139 0.04 41 0.5 -139
595.279 0.04 40 0.5 -140 0.04 40 0.5 -140
599.52885 0.04 39 0.5 -141 0.04 39 0.5 -141
603.7787 0.04 38 0.5 -142 0.04 38 0.5 -142
608.02855 0.04 37 0.5 -143 0.04 37 0.5 -143
612.2784 0.04 36 0.5 -144 0.04 36 0.5 -144
616.52825 0.04 35 0.5 -145 0.04 35 0.5 -145
620.7781 0.04 34 0.5 -146 0.04 34 0.5 -146
625.02795 0.04 33 0.5 -147 0.04 33 0.5 -147
629.2778 0.04 32 0.5 -148 0.04 32 0.5 -148
633.52765 0.04 31 0.5 -149 0.04 31 0.5 -149
637.7775 0.04 30 0.5 -150 0.04 30 0.5 -150
642.02735 0.04 29 0.5 -151 0.04 29 0.5 -151
646.2772 0.04 28 0.5 -152 0.04 28 0.5 -152
650.52705 0.04 27 0.5 -153 0.04 27 0.5 -153
654.7769 0.04 26 0.5 -154 0.04 26 0.5 -154
659.02675 0.04 25 0.5 -155 0.04 25 0.5 -155
663.2766 0.04 24 0.5 -156 0.04 24 0.5 -156
667.52645 0.04 23 0.5 -157 0.04 23 0.5 -157
671.7763 0.04 22 0.5 -158 0.04 22 0.5 -158
676.02615 0.04 21 0.5 -159 0.04 21 0.5 -159
680.276 0.04 20 0.5 -160 0.04 20 0.5 -160
684.52585 0.04 19 0.5 -161 0.04 19 0.5 -161
688.7757 0.04 18 0.5 -162 0.04 18 0.5 -162
693.02555 0.04 17 0.5 -163 0.04 17 0.5 -163
697.2754 0.04 16 0.5 -164 0.04 16 0.5 -164
701.52525 0.04 15 0.5 -165 0.04 15 0.5 -165
705.7751 0.04 14 0.5 -166 0.04 14 0.5 -166
710.02495 0.04 13 0.5 -167 0.04 13 0.5 -167
714.2748 0.04 12 0.5 -168 0.04 12 0.5 -168
718.52465 0.04 11 0.5 -169 0.04 11 0.5 -169
722.7745 0.04 10 0.5 -170 0.04 10 0.5 -170
727.02435 0.04 9 0.5 -171 0.04 9 0.5 -171
731.2742 0.04 8 0.5 -172 0.04 8 0.5 -172
735.52405 0.04 7 0.5 -173 0.04 7 0.5 -173
739.7739 0.04 6 0.5 -174 0.04 6 0.5 -174
744.02375 0.04 5 0.5 -175 0.04 5 0.5 -175
748.2736 0.04 4 0.5 -176 0.04 4 0.5 -176
752.52345 0.04 3 0.5 -177 0.04 3 0.5 -177
756.7733 0.04 2 0.5 -178 0.04 2 0.5 -178
761.02315 0.04 1 0.5 -179 0.04 1 0.5 -179
765.273 0.04 0 0.5 180 0.04 0 0.5 180
769.52285 0.04 -1 0.5 179 0.04 -1 0.5 179
773.7727 0.04 -2 0.5 178 0.04 -2 0.5 178
778.02255 0.04 -3 0.5 177 0.04 -3 0.5 177
782.2724 0.04 -4 0.5 176 0.04 -4 0.5 176
786.52225 0.04 -5 0.5 175 0.04 -5 0.5 175
790.7721 0.04 -6 0.5 174 0.04 -6 0.5 174
795.02195 0.04 -7 0.5 173 0.04 -7 0.5 173
799.2718 0.04 -8 0.5 172 0.04 -8 0.5 172
803.52165 0.04 -9 0.5 171 0.04 -9 0.5 171
807.7715 0.04 -10 0.5 170 0.04 -10 0.5 170
812.02135 0.04 -11 0.5 169 0.04 -11 0.5 169
816.2712 0.04 -12 0.5 168 0.04 -12 0.5 168
820.52105 0.04 -13 0.5 167 0.04 -13 0.5 167
824.7709 0.04 -14 0.5 166 0.04 -14 0.5 166
829.02075 0.04 -15 0.5 165 0.04 -15 0.5 165
833.2706 0.04 -16 0.5 164 0.04 -16 0.5 164
837.52045 0.04 -17 0.5 163 0.04 -17 0.5 163
841.7703 0.04 -18 0.5 162 0.04 -18 0.5 162
846.02015 0.04 -19 0.5 161 0.04 -19 0.5 161
850.27 0.04 -20 0.5 160 0.04 -20 0.5 160
854.51985 0.04 -21 0.5 159 0.04 -21 0.5 159
858.7697 0.04 -22 0.5 158 0.04 -22 0.5 158
863.01955 0.04 -23 0.5 157 0.04 -23 0.5 157
867.2694 0.04 -24 0.5 156 0.04 -24 0.5 156
871.51925 0.04 -25 0.5 155 0.04 -25 0.5 155
875.7691 0.04 -26 0.5 154 0.04 -26 0.5 154
880.01895 0.04 -27 0.5 153 0.04 -27 0.5 153
884.2688 0.04 -28 0.5 152 0.04 -28 0.5 152
888.51865 0.04 -29 0.5 151 0.04 -29 0.5 151
892.7685 0.04 -30 0.5 150 0.04 -30 0.5 150
897.01835 0.04 -31 0.5 149 0.04 -31 0.5 149
901.2682 0.04 -32 0.5 148 0.04 -32 0.5 148
905.51805 0.04 -33 0.5 147 0.04 -33 0.5 147
909.7679 0.04 -34 0.5 146 0.04 -34 0.5 146
914.01775 0.04 -35 0.5 145 0.04 -35 0.5 145
918.2676 0.04 -36 0.5 144 0.04 -36 0.5 144
922.51745 0.04 -37 0.5 143 0.04 -37 0.5 143
926.7673 0.04 -38 0.5 142 0.04 -38 0.5 142
931.01715 0.04 -39 0.5 141 0.04 -39 0.5 141
935.267 0.04 -40 0.5 140 0.04 -40 0.5 140
939.51685 0.04 -41 0.5 139 0.04 -41 0.5 139
943.7667 0.04 -42 0.5 138 0.04 -42 0.5 138
948.01655 0.04 -43 0.5 137 0.04 -43 0.5 137
952.2664 0.04 -44 0.5 136 0.04 -44 0.5 136
956.51625 0.04 -45 0.5 135 0.04 -45 0.5 135
960.7661 0.04 -46 0.5 134 0.04 -46 0.5 134
965.01595 0.04 -47 0.5 133 0.04 -47 0.5 133
969.2658 0.04 -48 0.5 132 0.04 -48 0.5 132
973.51565 0.04 -49 0.5 131 0.04 -49 0.5 131
977.7655 0.04 -50 0.5 130 0.04 -50 0.5 130
982.01535 0.04 -51 0.5 129 0.04 -51 0.5 129
986.2652 0.04 -52 0.5 128 0.04 -52 0.5 128
990.51505 0.04 -53 0.5 127 0.04 -53 0.5 127
994.7649 0.04 -54 0.5 126 0.04 -54 0.5 126
999.01475 0.04 -55 0.5 125 0.04 -55 0.5 125
1003.2646 0.04 -56 0.5 124 0.04 -56 0.5 124
1007.51445 0.04 -57 0.5 123 0.04 -57 0.5 123
1011.7643 0.04 -58 0.5 122 0.04 -58 0.5 122
1016.01415 0.04 -59 0.5 121 0.04 -59 0.5 121
1020.264 0.04 -60 0.5 120 0.04 -60 0.5 120
1024.51385 0.04 -61 0.5 119 0.04 -61 0.5 119
1028.7637 0.04 -62 0.5 118 0.04 -62 0.5 118
1033.01355 0.04 -63 0.5 117 0.04 -63 0.5 117
1037.2634 0.04 -64 0.5 116 0.04 -64 0.5 116
1041.51325 0.04 -65 0.5 115 0.04 -65 0.5 115
1045.7631 0.04 -66 0.5 114 0.04 -66 0.5 114
1050.01295 0.04 -67 0.5 113 0.04 -67 0.5 113
1054.2628 0.04 -68 0.5 112 0.04 -68 0.5 112
1058.51265 0.04 -69 0.5 111 0.04 -69 0.5 111
1062.7625 0.04 -70 0.5 110 0.04 -70 0.5 110
1067.01235 0.04 -71 0.5 109 0.04 -71 0.5 109
1071.2622 0.04 -72 0.5 108 0.04 -72 0.5 108
1075.51205 0.04 -73 0.5 107 0.04 -73 0.5 107
1079.7619 0.04 -74 0.5 106 0.04 -74 0.5 106
1084.01175 0.04 -75 0.5 105 0.04 -75 0.5 105
1088.2616 0.04 -76 0.5 104 0.04 -76 0.5 104
1092.51145 0.04 -77 0.5 103 0.04 -77 0.5 103
1096.7613 0.04 -78 0.5 102 0.04 -78 0.5 102
1101.01115 0.04 -79 0.5 101 0.04 -79 0.5 101
1105.261 0.04 -80 0.5 100 0.04 -80 0.5 100
1109.51085 0.04 -81 0.5 99 0.04 -81 0.5 99
1113.7607 0.04 -82 0.5 98 0.04 -82 0.5 98
1118.01055 0.04 -83 0.5 97 0.04 -83 0.5 97
1122.2604 0.04 -84 0.5 96 0.04 -84 0.5 96
1126.51025 0.04 -85 0.5 95 0.04 -85 0.5 95
1130.7601 0.04 -86 0.5 94 0.04 -86 0.5 94
1135.00995 0.04 -87 0.5 93 0.04 -87 0.5 93
1139.2598 0.04 -88 0.5 92 0.04 -88 0.5 92
1143.50965 0.04 -89 0.5 91 0.04 -89 0.5 91
1147.7595 0.04 -90 0.5 90 0.04 -90 0.5 90
1152.00935 0.04 -91 0.5 89 0.04 -91 0.5 89
1156.2592 0.04 -92 0.5 88 0.04 -92 0.5 88
1160.50905 0.04 -93 0.5 87 0.04 -93 0.5 87
1164.7589 0.04 -94 0.5 86 0.04 -94 0.5 86
1169.00875 0.04 -95 0.5 85 0.04 -95 0.5 85
1173.2586 0.04 -96 0.5 84 0.04 -96 0.5 84
1177.50845 0.04 -97 0.5 83 0.04 -97 0.5 83
1181.7583 0.04 -98 0.5 82 0.04 -98 0.5 82
1186.00815 0.04 -99 0.5 81 0.04 -99 0.5 81
1190.258 0.04 -100 0.5 80 0.04 -100 0.5 80
1194.50785 0.04 -101 0.5 79 0.04 -101 0.5 79
1198.7577 0.04 -102 0.5 78 0.04 -102 0.5 78
1203.00755 0.04 -103 0.5 77 0.04 -103 0.5 77
1207.2574 0.04 -104 0.5 76 0.04 -104 0.5 76
1211.50725 0.04 -105 0.5 75 0.04 -105 0.5 75
1215.7571 0.04 -106 0.5 74 0.04 -106 0.5 74
1220.00695 0.04 -107 0.5 73 0.04 -107 0.5 73
1224.2568 0.04 -108 0.5 72 0.04 -108 0.5 72
1228.50665 0.04 -109 0.5 71 0.04 -109 0.5 71
1232.7565 0.04 -110 0.5 70 0.04 -110 0.5 70
1237.00635 0.04 -111 0.5 69 0.04 -111 0.5 69
1241.2562 0.04 -112 0.5 68 0.04 -112 0.5 68
1245.50605 0.04 -113 0.5 67 0.04 -113 0.5 67
1249.7559 0.04 -114 0.5 66 0.04 -114 0.5 66
1254.00575 0.04 -115 0.5 65 0.04 -115 0.5 65
1258.2556 0.04 -116 0.5 64 0.04 -116 0.5 64
1262.50545 0.04 -117 0.5 63 0.04 -117 0.5 63
1266.7553 0.04 -118 0.5 62 0.04 -118 0.5 62
1271.00515 0.04 -119 0.5 61 0.04 -119 0.5 61
1275.255 0.04 -120 0.5 60 0.04 -120 0.5 60
1279.50485 0.04 -121 0.5 59 0.04 -121 0.5 59
1283.7547 0.04 -122 0.5 58 0.04 -122 0.5 58
1288.00455 0.04 -123 0.5 57 0.04 -123 0.5 57
1292.2544 0.04 -124 0.5 56 0.04 -124 0.5 56
1296.50425 0.04 -125 0.5 55 0.04 -125 0.5 55
1300.7541 0.04 -126 0.5 54 0.04 -126 0.5 54
1305.00395 0.04 -127 0.5 53 0.04 -127 0.5 53
1309.2538 0.04 -128 0.5 52 0.04 -128 0.5 52
1313.50365 0.04 -129 0.5 51 0.04 -129 0.5 51
1317.7535 0.04 -130 0.5 50 0.04 -130 0.5 50
1322.00335 0.04 -131 0.5 49 0.04 -131 0.5 49
1326.2532 0.04 -132 0.5 48 0.04 -132 0.5 48
1330.50305 0.04 -133 0.5 47 0.04 -133 0.5 47
1334.7529 0.04 -134 0.5 46 0.04 -134 0.5 46
1339.00275 0.04 -135 0.5 45 0.04 -135 0.5 45
1343.2526 0.04 -136 0.5 44 0.04 -136 0.5 44
1347.50245 0.04 -137 0.5 43 0.04 -137 0.5 43
1351.7523 0.04 -138 0.5 42 0.04 -138 0.5 42
1356.00215 0.04 -139 0.5 41 0.04 -139 0.5 41
1360.252 0.04 -140 0.5 40 0.04 -140 0.5 40
1364.50185 0.04 -141 0.5 39 0.04 -141 0.5 39
1368.7517 0.04 -142 0.5 38 0.04 -142 0.5 38
1373.00155 0.04 -143 0.5 37 0.04 -143 0.5 37
1377.2514 0.04 -144 0.5 36 0.04 -144 0.5 36
1381.50125 0.04 -145 0.5 35 0.04 -145 0.5 35
1385.7511 0.04 -146 0.5 34 0.04 -146 0.5 34
1390.00095 0.04 -147 0.5 33 0.04 -147 0.5 33
1394.2508 0.04 -148 0.5 32 0.04 -148 0.5 32
1398.50065 0.04 -149 0.5 31 0.04 -149 0.5 31
1402.7505 0.04 -150 0.5 30 0.04 -150 0.5 30
1407.00035 0.04 -151 0.5 29 0.04 -151 0.5 29
1411.2502 0.04 -152 0.5 28 0.04 -152 0.5 28
1415.50005 0.04 -153 0.5 27 0.04 -153 0.5 27
1419.7499 0.04 -154 0.5 26 0.04 -154 0.5 26
1423.99975 0.04 -155 0.5 25 0.04 -155 0.5 25
1428.2496 0.04 -156 0.5 24 0.04 -156 0.5 24
1432.49945 0.04 -157 0.5 23 0.04 -157 0.5 23
1436.7493 0.04 -158 0.5 22 0.04 -158 0.5 22
1440.99915 0.04 -159 0.5 21 0.04 -159 0.5 21
1445.249 0.04 -160 0.5 20 0.04 -160 0.5 20
1449.49885 0.04 -161 0.5 19 0.04 -161 0.5 19
1453.7487 0.04 -162 0.5 18 0.04 -162 0.5 18
1457.99855 0.04 -163 0.5 17 0.04 -163 0.5 17
1462.2484 0.04 -164 0.5 16 0.04 -164 0.5 16
1466.49825 0.04 -165 0.5 15 0.04 -165 0.5 15
1470.7481 0.04 -166 0.5 14 0.04 -166 0.5 14
1474.99795 0.04 -167 0.5 13 0.04 -167 0.5 13
1479.2478 0.04 -168 0.5 12 0.04 -168 0.5 12
1483.49765 0.04 -169 0.5 11 0.04 -169 0.5 11
1487.7475 0.04 -170 0.5 10 0.04 -170 0.5 10
1491.99735 0.04 -171 0.5 9 0.04 -171 0.5 9
1496.2472 0.04 -172 0.5 8 0.04 -172 0.5 8
1500.49705 0.04 -173 0.5 7 0.04 -173 0.5 7
1504.7469 0.04 -174 0.5 6 0.04 -174 0.5 6
1508.99675 0.04 -175 0.5 5 0.04 -175 0.5 5
1513.2466 0.04 -176 0.5 4 0.04 -176 0.5 4
1517.49645 0.04 -177 0.5 3 0.04 -177 0.5 3
1521.7463 0.04 -178 0.5 2 0.04 -178 0.5 2
1525.99615 0.04 -179 0.5 1 0.04 -179 0.5 1
1530.246 0.04 180 0.5 0 0.04 180 0.5 0
1534.49585 0.04 179 0.5 -1 0.04 179 0.5 -1
1538.7457 0.04 178 0.5 -2 0.04 178 0.5 -2
1542.99555 0.04 177 0.5 -3 0.04 177 0.5 -3
1547.2454 0.04 176 0.5 -4 0.04 176 0.5 -4
1551.49525 0.04 175 0.5 -5 0.04 175 0.5 -5
1555.7451 0.04 174 0.5 -6 0.04 174 0.5 -6
1559.99495 0.04 173 0.5 -7 0.04 173 0.5 -7
1564.2448 0.04 172 0.5 -8 0.04 172 0.5 -8
1568.49465 0.04 171 0.5 -9 0.04 171 0.5 -9
1572.7445 0.04 170 0.5 -10 0.04 170 0.5 -10
1576.99435 0.04 169 0.5 -11 0.04 169 0.5 -11
1581.2442 0.04 168 0.5 -12 0.04 168 0.5 -12
1585.49405 0.04 167 0.5 -13 0.04 167 0.5 -13
1589.7439 0.04 166 0.5 -14 0.04 166 0.5 -14
1593.99375 0.04 165 0.5 -15 0.04 165 0.5 -15
1598.2436 0.04 164 0.5 -16 0.04 164 0.5 -16
1602.49345 0.04 163 0.5 -17 0.04 163 0.5 -17
1606.7433 0.04 162 0.5 -18 0.04 162 0.5 -18
1610.99315 0.04 161 0.5 -19 0.04 161 0.5 -19
1615.243 0.04 160 0.5 -20 0.04 160 0.5 -20
1619.49285 0.04 159 0.5 -21 0.04 159 0.5 -21
1623.7427 0.04 158 0.5 -22 0.04 158 0.5 -22
1627.99255 0.04 157 0.5 -23 0.04 157 0.5 -23
1632.2424 0.04 156 0.5 -24 0.04 156 0.5 -24
1636.49225 0.04 155 0.5 -25 0.04 155 0.5 -25
1640.7421 0.04 154 0.5 -26 0.04 154 0.5 -26
1644.99195 0.04 153 0.5 -27 0.04 153 0.5 -27
1649.2418 0.04 152 0.5 -28 0.04 152 0.5 -28
1653.49165 0.04 151 0.5 -29 0.04 151 0.5 -29
1657.7415 0.04 150 0.5 -30 0.04 150 0.5 -30
1661.99135 0.04 149 0.5 -31 0.04 149 0.5 -31
1666.2412 0.04 148 0.5 -32 0.04 148 0.5 -32
1670.49105 0.04 147 0.5 -33 0.04 147 0.5 -33
1674.7409 0.04 146 0.5 -34 0.04 146 0.5 -34
1678.99075 0.04 145 0.5 -35 0.04 145 0.5 -35
1683.2406 0.04 144 0.5 -36 0.04 144 0.5 -36
1687.49045 0.04 143 0.5 -37 0.04 143 0.5 -37
1691.7403 0.04 142 0.5 -38 0.04 142 0.5 -38
1695.99015 0.04 141 0.5 -39 0.04 141 0.5 -39
1700.24 0.04 140 0.5 -40 0.04 140 0.5 -40
1704.48985 0.04 139 0.5 -41 0.04 139 0.5 -41
1708.7397 0.04 138 0.5 -42 0.04 138 0.5 -42
1712.98955 0.04 137 0.5 -43 0.04 137 0.5 -43
1717.2394 0.04 136 0.5 -44 0.04 136 0.5 -44
1721.48925 0.04 135 0.5 -45 0.04 135 0.5 -45
1725.7391 0.04 134 0.5 -46 0.04 134 0.5 -46
1729.98895 0.04 133 0.5 -47 0.04 133 0.5 -47
1734.2388 0.04 132 0.5 -48 0.04 132 0.5 -48
1738.48865 0.04 131 0.5 -49 0.04 131 0.5 -49
1742.7385 0.04 130 0.5 -50 0.04 130 0.5 -50
1746.98835 0.04 129 0.5 -51 0.04 129 0.5 -51
1751.2382 0.04 128 0.5 -52 0.04 128 0.5 -52
1755.48805 0.04 127 0.5 -53 0.04 127 0.5 -53
1759.7379 0.04 126 0.5 -54 0.04 126 0.5 -54
1763.98775 0.04 125 0.5 -55 0.04 125 0.5 -55
1768.2376 0.04 124 0.5 -56 0.04 124 0.5 -56
1772.48745 0.04 123 0.5 -57 0.04 123 0.5 -57
1776.7373 0.04 122 0.5 -58 0.04 122 0.5 -58
1780.98715 0.04 121 0.5 -59 0.04 121 0.5 -59
1785.237 0.04 120 0.5 -60 0.04 120 0.5 -60
1789.48685 0.04 119 0.5 -61 0.04 119 0.5 -61
1793.7367 0.04 118 0.5 -62 0.04 118 0.5 -62
1797.98655 0.04 117 0.5 -63 0.04 117 0.5 -63
1802.2364 0.04 116 0.5 -64 0.04 116 0.5 -64
1806.48625 0.04 115 0.5 -65 0.04 115 0.5 -65
1810.7361 0.04 114 0.5 -66 0.04 114 0.5 -66
1814.98595 0.04 113 0.5 -67 0.04 113 0.5 -67
1819.2358 0.04 112 0.5 -68 0.04 112 0.5 -68
1823.48565 0.04 111 0.5 -69 0.04 111 0.5 -69
1827.7355 0.04 110 0.5 -70 0.04 110 0.5 -70
1831.98535 0.04 109 0.5 -71 0.04 109 0.5 -71
1836.2352 0.04 108 0.5 -72 0.04 108 0.5 -72
1840.48505 0.04 107 0.5 -73 0.04 107 0.5 -73
1844.7349 0.04 106 0.5 -74 0.04 106 0.5 -74
1848.98475 0.04 105 0.5 -75 0.04 105 0.5 -75
1853.2346 0.04 104 0.5 -76 0.04 104 0.5 -76
1857.48445 0.04 103 0.5 -77 0.04 103 0.5 -77
1861.7343 0.04 102 0.5 -78 0.04 102 0.5 -78
1865.98415 0.04 101 0.5 -79 0.04 101 0.5 -79
1870.234 0.04 100 0.5 -80 0.04 100 0.5 -80
1874.48385 0.04 99 0.5 -81 0.04 99 0.5 -81
1878.7337 0.04 98 0.5 -82 0.04 98 0.5 -82
1882.98355 0.04 97 0.5 -83 0.04 97 0.5 -83
1887.2334 0.04 96 0.5 -84 0.04 96 0.5 -84
1891.48325 0.04 95 0.5 -85 0.04 95 0.5 -85
1895.7331 0.04 94 0.5 -86 0.04 94 0.5 -86
1899.98295 0.04 93 0.5 -87 0.04 93 0.5 -87
1904.2328 0.04 92 0.5 -88 0.04 92 0.5 -88
1908.48265 0.04 91 0.5 -89 0.04 91 0.5 -89
1912.7325 0.04 90 0.5 -90 0.04 90 0.5 -90
1916.98235 0.04 89 0.5 -91 0.04 89 0.5 -91
1921.2322 0.04 88 0.5 -92 0.04 88 0.5 -92
1925.48205 0.04 87 0.5 -93 0.04 87 0.5 -93
1929.7319 0.04 86 0.5 -94 0.04 86 0.5 -94
1933.98175 0.04 85 0.5 -95 0.04 85 0.5 -95
1938.2316 0.04 84 0.5 -96 0.04 84 0.5 -96
1942.48145 0.04 83 0.5 -97 0.04 83 0.5 -97
1946.7313 0.04 82 0.5 -98 0.04 82 0.5 -98
1950.98115 0.04 81 0.5 -99 0.04 81 0.5 -99
