# MHz S MA R 50   
0.3 1 180 0.0001 0 1 180 0.0001 0
4.54985 1 179 0.0001 0 1 179 0.0001 0
8.7997 1 178 0.0001 0 1 178 0.0001 0
13.04955 1 177 0.0001 0 1 177 0.0001 0
17.2994 1 176 0.0001 0 1 176 0.0001 0
21.54925 1 175 0.0001 0 1 175 0.0001 0
25.7991 1 174 0.0001 0 1 174 0.0001 0
30.04895 1 173 0.0001 0 1 173 0.0001 0
34.2988 1 172 0.0001 0 1 172 0.0001 0
38.54865 1 171 0.0001 0 1 171 0.0001 0
42.7985 1 170 0.0001 0 1 170 0.0001 0
47.04835 1 169 0.0001 0 1 169 0.0001 0
51.2982 1 168 0.0001 0 1 168 0.0001 0
55.54805 1 167 0.0001 0 1 167 0.0001 0
59.7979 1 166 0.0001 0 1 166 0.0001 0
64.04775 1 165 0.0001 0 1 165 0.0001 0
68.2976 1 164 0.0001 0 1 164 0.0001 0
72.54745 1 163 0.0001 0 1 163 0.0001 0
76.7973 1 162 0.0001 0 1 162 0.0001 0
81.04715 1 161 0.0001 0 1 161 0.0001 0
85.297 1 160 0.0001 0 1 160 0.0001 0
89.54685 1 159 0.0001 0 1 159 0.0001 0
93.7967 1 158 0.0001 0 1 158 0.0001 0
98.04655 1 157 0.0001 0 1 157 0.0001 0
102.2964 1 156 0.0001 0 1 156 0.0001 0
106.54625 1 155 0.0001 0 1 155 0.0001 0
110.7961 1 154 0.0001 0 1 154 0.0001 0
115.04595 1 153 0.0001 0 1 153 0.0001 0
119.2958 1 152 0.0001 0 1 152 0.0001 0
123.54565 1 151 0.0001 0 1 151 0.0001 0
127.7955 1 150 0.0001 0 1 150 0.0001 0
132.04535 1 149 0.0001 0 1 149 0.0001 0
136.2952 1 148 0.0001 0 1 148 0.0001 0
140.54505 1 147 0.0001 0 1 147 0.0001 0
144.7949 1 146 0.0001 0 1 146 0.0001 0
149.04475 1 145 0.0001 0 1 145 0.0001 0
153.2946 1 144 0.0001 0 1 144 0.0001 0
157.54445 1 143 0.0001 0 1 143 0.0001 0
161.7943 1 142 0.0001 0 1 142 0.0001 0
166.04415 1 141 0.0001 0 1 141 0.0001 0
170.294 1 140 0.0001 0 1 140 0.0001 0
174.54385 1 139 0.0001 0 1 139 0.0001 0
178.7937 1 138 0.0001 0 1 138 0.0001 0
183.04355 1 137 0.0001 0 1 137 0.0001 0
187.2934 1 136 0.0001 0 1 136 0.0001 0
191.54325 1 135 0.0001 0 1 135 0.0001 0
195.7931 1 134 0.0001 0 1 134 0.0001 0
200.04295 1 133 0.0001 0 1 133 0.0001 0
204.2928 1 132 0.0001 0 1 132 0.0001 0
208.54265 1 131 0.0001 0 1 131 0.0001 0
212.7925 1 130 0.0001 0 1 130 0.0001 0
217.04235 1 129 0.0001 0 1 129 0.0001 0
221.2922 1 128 0.0001 0 1 128 0.0001 0
225.54205 1 127 0.0001 0 1 127 0.0001 0
229.7919 1 126 0.0001 0 1 126 0.0001 0
234.04175 1 125 0.0001 0 1 125 0.0001 0
238.2916 1 124 0.0001 0 1 124 0.0001 0
242.54145 1 123 0.0001 0 1 123 0.0001 0
246.7913 1 122 0.0001 0 1 122 0.0001 0
251.04115 1 121 0.0001 0 1 121 0.0001 0
255.291 1 120 0.0001 0 1 120 0.0001 0
259.54085 1 119 0.0001 0 1 119 0.0001 0
263.7907 1 118 0.0001 0 1 118 0.0001 0
268.04055 1 117 0.0001 0 1 117 0.0001 0
272.2904 1 116 0.0001 0 1 116 0.0001 0
276.54025 1 115 0.0001 0 1 115 0.0001 0
280.7901 1 114 0.0001 0 1 114 0.0001 0
285.03995 1 113 0.0001 0 1 113 0.0001 0
289.2898 1 112 0.0001 0 1 112 0.0001 0
293.53965 1 111 0.0001 0 1 111 0.0001 0
297.7895 1 110 0.0001 0 1 110 0.0001 0
302.03935 1 109 0.0001 0 1 109 0.0001 0
306.2892 1 108 0.0001 0 1 108 0.0001 0
310.53905 1 107 0.0001 0 1 107 0.0001 0
314.7889 1 106 0.0001 0 1 106 0.0001 0
319.03875 1 105 0.0001 0 1 105 0.0001 0
323.2886 1 104 0.0001 0 1 104 0.0001 0
327.53845 1 103 0.0001 0 1 103 0.0001 0
331.7883 1 102 0.0001 0 1 102 0.0001 0
336.03815 1 101 0.0001 0 1 101 0.0001 0
340.288 1 100 0.0001 0 1 100 0.0001 0
344.53785 1 99 0.0001 0 1 99 0.0001 0
348.7877 1 98 0.0001 0 1 98 0.0001 0
353.03755 1 97 0.0001 0 1 97 0.0001 0
357.2874 1 96 0.0001 0 1 96 0.0001 0
361.53725 1 95 0.0001 0 1 95 0.0001 0
365.7871 1 94 0.0001 0 1 94 0.0001 0
370.03695 1 93 0.0001 0 1 93 0.0001 0
374.2868 1 92 0.0001 0 1 92 0.0001 0
378.53665 1 91 0.0001 0 1 91 0.0001 0
382.7865 1 90 0.0001 0 1 90 0.0001 0
387.03635 1 89 0.0001 0 1 89 0.0001 0
391.2862 1 88 0.0001 0 1 88 0.0001 0
395.53605 1 87 0.0001 0 1 87 0.0001 0
399.7859 1 86 0.0001 0 1 86 0.0001 0
404.03575 1 85 0.0001 0 1 85 0.0001 0
408.2856 1 84 0.0001 0 1 84 0.0001 0
412.53545 1 83 0.0001 0 1 83 0.0001 0
416.7853 1 82 0.0001 0 1 82 0.0001 0
421.03515 1 81 0.0001 0 1 81 0.0001 0
425.285 1 80 0.0001 0 1 80 0.0001 0
429.53485 1 79 0.0001 0 1 79 0.0001 0
433.7847 1 78 0.0001 0 1 78 0.0001 0
438.03455 1 77 0.0001 0 1 77 0.0001 0
442.2844 1 76 0.0001 0 1 76 0.0001 0
446.53425 1 75 0.0001 0 1 75 0.0001 0
450.7841 1 74 0.0001 0 1 74 0.0001 0
455.03395 1 73 0.0001 0 1 73 0.0001 0
459.2838 1 72 0.0001 0 1 72 0.0001 0
463.53365 1 71 0.0001 0 1 71 0.0001 0
467.7835 1 70 0.0001 0 1 70 0.0001 0
472.03335 1 69 0.0001 0 1 69 0.0001 0
476.2832 1 68 0.0001 0 1 68 0.0001 0
480.53305 1 67 0.0001 0 1 67 0.0001 0
484.7829 1 66 0.0001 0 1 66 0.0001 0
489.03275 1 65 0.0001 0 1 65 0.0001 0
493.2826 1 64 0.0001 0 1 64 0.0001 0
497.53245 1 63 0.0001 0 1 63 0.0001 0
501.7823 1 62 0.0001 0 1 62 0.0001 0
506.03215 1 61 0.0001 0 1 61 0.0001 0
510.282 1 60 0.0001 0 1 60 0.0001 0
514.53185 1 59 0.0001 0 1 59 0.0001 0
518.7817 1 58 0.0001 0 1 58 0.0001 0
523.03155 1 57 0.0001 0 1 57 0.0001 0
527.2814 1 56 0.0001 0 1 56 0.0001 0
531.53125 1 55 0.0001 0 1 55 0.0001 0
535.7811 1 54 0.0001 0 1 54 0.0001 0
540.03095 1 53 0.0001 0 1 53 0.0001 0
544.2808 1 52 0.0001 0 1 52 0.0001 0
548.53065 1 51 0.0001 0 1 51 0.0001 0
552.7805 1 50 0.0001 0 1 50 0.0001 0
557.03035 1 49 0.0001 0 1 49 0.0001 0
561.2802 1 48 0.0001 0 1 48 0.0001 0
565.53005 1 47 0.0001 0 1 47 0.0001 0
569.7799 1 46 0.0001 0 1 46 0.0001 0
574.02975 1 45 0.0001 0 1 45 0.0001 0
578.2796 1 44 0.0001 0 1 44 0.0001 0
582.52945 1 43 0.0001 0 1 43 0.0001 0
586.7793 1 42 0.0001 0 1 42 0.0001 0
591.02915 1 41 0.0001 0 1 41 0.0001 0
595.279 1 40 0.0001 0 1 40 0.0001 0
599.52885 1 39 0.0001 0 1 39 0.0001 0
603.7787 1 38 0.0001 0 1 38 0.0001 0
608.02855 1 37 0.0001 0 1 37 0.0001 0
612.2784 1 36 0.0001 0 1 36 0.0001 0
616.52825 1 35 0.0001 0 1 35 0.0001 0
620.7781 1 34 0.0001 0 1 34 0.0001 0
625.02795 1 33 0.0001 0 1 33 0.0001 0
629.2778 1 32 0.0001 0 1 32 0.0001 0
633.52765 1 31 0.0001 0 1 31 0.0001 0
637.7775 1 30 0.0001 0 1 30 0.0001 0
642.02735 1 29 0.0001 0 1 29 0.0001 0
646.2772 1 28 0.0001 0 1 28 0.0001 0
650.52705 1 27 0.0001 0 1 27 0.0001 0
654.7769 1 26 0.0001 0 1 26 0.0001 0
659.02675 1 25 0.0001 0 1 25 0.0001 0
663.2766 1 24 0.0001 0 1 24 0.0001 0
667.52645 1 23 0.0001 0 1 23 0.0001 0
671.7763 1 22 0.0001 0 1 22 0.0001 0
676.02615 1 21 0.0001 0 1 21 0.0001 0
680.276 1 20 0.0001 0 1 20 0.0001 0
684.52585 1 19 0.0001 0 1 19 0.0001 0
688.7757 1 18 0.0001 0 1 18 0.0001 0
693.02555 1 17 0.0001 0 1 17 0.0001 0
697.2754 1 16 0.0001 0 1 16 0.0001 0
701.52525 1 15 0.0001 0 1 15 0.0001 0
705.7751 1 14 0.0001 0 1 14 0.0001 0
710.02495 1 13 0.0001 0 1 13 0.0001 0
714.2748 1 12 0.0001 0 1 12 0.0001 0
718.52465 1 11 0.0001 0 1 11 0.0001 0
722.7745 1 10 0.0001 0 1 10 0.0001 0
727.02435 1 9 0.0001 0 1 9 0.0001 0
731.2742 1 8 0.0001 0 1 8 0.0001 0
735.52405 1 7 0.0001 0 1 7 0.0001 0
739.7739 1 6 0.0001 0 1 6 0.0001 0
744.02375 1 5 0.0001 0 1 5 0.0001 0
748.2736 1 4 0.0001 0 1 4 0.0001 0
752.52345 1 3 0.0001 0 1 3 0.0001 0
756.7733 1 2 0.0001 0 1 2 0.0001 0
761.02315 1 1 0.0001 0 1 1 0.0001 0
765.273 1 0 0.0001 0 1 0 0.0001 0
769.52285 1 -1 0.0001 0 1 -1 0.0001 0
773.7727 1 -2 0.0001 0 1 -2 0.0001 0
778.02255 1 -3 0.0001 0 1 -3 0.0001 0
782.2724 1 -4 0.0001 0 1 -4 0.0001 0
786.52225 1 -5 0.0001 0 1 -5 0.0001 0
790.7721 1 -6 0.0001 0 1 -6 0.0001 0
795.02195 1 -7 0.0001 0 1 -7 0.0001 0
799.2718 1 -8 0.0001 0 1 -8 0.0001 0
803.52165 1 -9 0.0001 0 1 -9 0.0001 0
807.7715 1 -10 0.0001 0 1 -10 0.0001 0
812.02135 1 -11 0.0001 0 1 -11 0.0001 0
816.2712 1 -12 0.0001 0 1 -12 0.0001 0
820.52105 1 -13 0.0001 0 1 -13 0.0001 0
824.7709 1 -14 0.0001 0 1 -14 0.0001 0
829.02075 1 -15 0.0001 0 1 -15 0.0001 0
833.2706 1 -16 0.0001 0 1 -16 0.0001 0
837.52045 1 -17 0.0001 0 1 -17 0.0001 0
841.7703 1 -18 0.0001 0 1 -18 0.0001 0
846.02015 1 -19 0.0001 0 1 -19 0.0001 0
850.27 1 -20 0.0001 0 1 -20 0.0001 0
854.51985 1 -21 0.0001 0 1 -21 0.0001 0
858.7697 1 -22 0.0001 0 1 -22 0.0001 0
863.01955 1 -23 0.0001 0 1 -23 0.0001 0
867.2694 1 -24 0.0001 0 1 -24 0.0001 0
871.51925 1 -25 0.0001 0 1 -25 0.0001 0
875.7691 1 -26 0.0001 0 1 -26 0.0001 0
880.01895 1 -27 0.0001 0 1 -27 0.0001 0
884.2688 1 -28 0.0001 0 1 -28 0.0001 0
888.51865 1 -29 0.0001 0 1 -29 0.0001 0
892.7685 1 -30 0.0001 0 1 -30 0.0001 0
897.01835 1 -31 0.0001 0 1 -31 0.0001 0
901.2682 1 -32 0.0001 0 1 -32 0.0001 0
905.51805 1 -33 0.0001 0 1 -33 0.0001 0
909.7679 1 -34 0.0001 0 1 -34 0.0001 0
914.01775 1 -35 0.0001 0 1 -35 0.0001 0
918.2676 1 -36 0.0001 0 1 -36 0.0001 0
922.51745 1 -37 0.0001 0 1 -37 0.0001 0
926.7673 1 -38 0.0001 0 1 -38 0.0001 0
931.01715 1 -39 0.0001 0 1 -39 0.0001 0
935.267 1 -40 0.0001 0 1 -40 0.0001 0
939.51685 1 -41 0.0001 0 1 -41 0.0001 0
943.7667 1 -42 0.0001 0 1 -42 0.0001 0
948.01655 1 -43 0.0001 0 1 -43 0.0001 0
952.2664 1 -44 0.0001 0 1 -44 0.0001 0
956.51625 1 -45 0.0001 0 1 -45 0.0001 0
960.7661 1 -46 0.0001 0 1 -46 0.0001 0
965.01595 1 -47 0.0001 0 1 -47 0.0001 0
969.2658 1 -48 0.0001 0 1 -48 0.0001 0
973.51565 1 -49 0.0001 0 1 -49 0.0001 0
977.7655 1 -50 0.0001 0 1 -50 0.0001 0
982.01535 1 -51 0.0001 0 1 -51 0.0001 0
986.2652 1 -52 0.0001 0 1 -52 0.0001 0
990.51505 1 -53 0.0001 0 1 -53 0.0001 0
994.7649 1 -54 0.0001 0 1 -54 0.0001 0
999.01475 1 -55 0.0001 0 1 -55 0.0001 0
1003.2646 1 -56 0.0001 0 1 -56 0.0001 0
1007.51445 1 -57 0.0001 0 1 -57 0.0001 0
1011.7643 1 -58 0.0001 0 1 -58 0.0001 0
1016.01415 1 -59 0.0001 0 1 -59 0.0001 0
1020.264 1 -60 0.0001 0 1 -60 0.0001 0
1024.51385 1 -61 0.0001 0 1 -61 0.0001 0
1028.7637 1 -62 0.0001 0 1 -62 0.0001 0
1033.01355 1 -63 0.0001 0 1 -63 0.0001 0
1037.2634 1 -64 0.0001 0 1 -64 0.0001 0
1041.51325 1 -65 0.0001 0 1 -65 0.0001 0
1045.7631 1 -66 0.0001 0 1 -66 0.0001 0
1050.01295 1 -67 0.0001 0 1 -67 0.0001 0
1054.2628 1 -68 0.0001 0 1 -68 0.0001 0
1058.51265 1 -69 0.0001 0 1 -69 0.0001 0
1062.7625 1 -70 0.0001 0 1 -70 0.0001 0
1067.01235 1 -71 0.0001 0 1 -71 0.0001 0
1071.2622 1 -72 0.0001 0 1 -72 0.0001 0
1075.51205 1 -73 0.0001 0 1 -73 0.0001 0
1079.7619 1 -74 0.0001 0 1 -74 0.0001 0
1084.01175 1 -75 0.0001 0 1 -75 0.0001 0
1088.2616 1 -76 0.0001 0 1 -76 0.0001 0
1092.51145 1 -77 0.0001 0 1 -77 0.0001 0
1096.7613 1 -78 0.0001 0 1 -78 0.0001 0
1101.01115 1 -79 0.0001 0 1 -79 0.0001 0
1105.261 1 -80 0.0001 0 1 -80 0.0001 0
1109.51085 1 -81 0.0001 0 1 -81 0.0001 0
1113.7607 1 -82 0.0001 0 1 -82 0.0001 0
1118.01055 1 -83 0.0001 0 1 -83 0.0001 0
1122.2604 1 -84 0.0001 0 1 -84 0.0001 0
1126.51025 1 -85 0.0001 0 1 -85 0.0001 0
1130.7601 1 -86 0.0001 0 1 -86 0.0001 0
1135.00995 1 -87 0.0001 0 1 -87 0.0001 0
1139.2598 1 -88 0.0001 0 1 -88 0.0001 0
1143.50965 1 -89 0.0001 0 1 -89 0.0001 0
1147.7595 1 -90 0.0001 0 1 -90 0.0001 0
1152.00935 1 -91 0.0001 0 1 -91 0.0001 0
1156.2592 1 -92 0.0001 0 1 -92 0.0001 0
1160.50905 1 -93 0.0001 0 1 -93 0.0001 0
1164.7589 1 -94 0.0001 0 1 -94 0.0001 0
1169.00875 1 -95 0.0001 0 1 -95 0.0001 0
1173.2586 1 -96 0.0001 0 1 -96 0.0001 0
1177.50845 1 -97 0.0001 0 1 -97 0.0001 0
1181.7583 1 -98 0.0001 0 1 -98 0.0001 0
1186.00815 1 -99 0.0001 0 1 -99 0.0001 0
1190.258 1 -100 0.0001 0 1 -100 0.0001 0
1194.50785 1 -101 0.0001 0 1 -101 0.0001 0
1198.7577 1 -102 0.0001 0 1 -102 0.0001 0
1203.00755 1 -103 0.0001 0 1 -103 0.0001 0
1207.2574 1 -104 0.0001 0 1 -104 0.0001 0
1211.50725 1 -105 0.0001 0 1 -105 0.0001 0
1215.7571 1 -106 0.0001 0 1 -106 0.0001 0
1220.00695 1 -107 0.0001 0 1 -107 0.0001 0
1224.2568 1 -108 0.0001 0 1 -108 0.0001 0
1228.50665 1 -109 0.0001 0 1 -109 0.0001 0
1232.7565 1 -110 0.0001 0 1 -110 0.0001 0
1237.00635 1 -111 0.0001 0 1 -111 0.0001 0
1241.2562 1 -112 0.0001 0 1 -112 0.0001 0
1245.50605 1 -113 0.0001 0 1 -113 0.0001 0
1249.7559 1 -114 0.0001 0 1 -114 0.0001 0
1254.00575 1 -115 0.0001 0 1 -115 0.0001 0
1258.2556 1 -116 0.0001 0 1 -116 0.0001 0
1262.50545 1 -117 0.0001 0 1 -117 0.0001 0
1266.7553 1 -118 0.0001 0 1 -118 0.0001 0
1271.00515 1 -119 0.0001 0 1 -119 0.0001 0
1275.255 1 -120 0.0001 0 1 -120 0.0001 0
1279.50485 1 -121 0.0001 0 1 -121 0.0001 0
1283.7547 1 -122 0.0001 0 1 -122 0.0001 0
1288.00455 1 -123 0.0001 0 1 -123 0.0001 0
1292.2544 1 -124 0.0001 0 1 -124 0.0001 0
1296.50425 1 -125 0.0001 0 1 -125 0.0001 0
1300.7541 1 -126 0.0001 0 1 -126 0.0001 0
1305.00395 1 -127 0.0001 0 1 -127 0.0001 0
1309.2538 1 -128 0.0001 0 1 -128 0.0001 0
1313.50365 1 -129 0.0001 0 1 -129 0.0001 0
1317.7535 1 -130 0.0001 0 1 -130 0.0001 0
1322.00335 1 -131 0.0001 0 1 -131 0.0001 0
1326.2532 1 -132 0.0001 0 1 -132 0.0001 0
1330.50305 1 -133 0.0001 0 1 -133 0.0001 0
1334.7529 1 -134 0.0001 0 1 -134 0.0001 0
1339.00275 1 -135 0.0001 0 1 -135 0.0001 0
1343.2526 1 -136 0.0001 0 1 -136 0.0001 0
1347.50245 1 -137 0.0001 0 1 -137 0.0001 0
1351.7523 1 -138 0.0001 0 1 -138 0.0001 0
1356.00215 1 -139 0.0001 0 1 -139 0.0001 0
1360.252 1 -140 0.0001 0 1 -140 0.0001 0
1364.50185 1 -141 0.0001 0 1 -141 0.0001 0
1368.7517 1 -142 0.0001 0 1 -142 0.0001 0
1373.00155 1 -143 0.0001 0 1 -143 0.0001 0
1377.2514 1 -144 0.0001 0 1 -144 0.0001 0
1381.50125 1 -145 0.0001 0 1 -145 0.0001 0
1385.7511 1 -146 0.0001 0 1 -146 0.0001 0
1390.00095 1 -147 0.0001 0 1 -147 0.0001 0
1394.2508 1 -148 0.0001 0 1 -148 0.0001 0
1398.50065 1 -149 0.0001 0 1 -149 0.0001 0
1402.7505 1 -150 0.0001 0 1 -150 0.0001 0
1407.00035 1 -151 0.0001 0 1 -151 0.0001 0
1411.2502 1 -152 0.0001 0 1 -152 0.0001 0
1415.50005 1 -153 0.0001 0 1 -153 0.0001 0
1419.7499 1 -154 0.0001 0 1 -154 0.0001 0
1423.99975 1 -155 0.0001 0 1 -155 0.0001 0
1428.2496 1 -156 0.0001 0 1 -156 0.0001 0
1432.49945 1 -157 0.0001 0 1 -157 0.0001 0
1436.7493 1 -158 0.0001 0 1 -158 0.0001 0
1440.99915 1 -159 0.0001 0 1 -159 0.0001 0
1445.249 1 -160 0.0001 0 1 -160 0.0001 0
1449.49885 1 -161 0.0001 0 1 -161 0.0001 0
1453.7487 1 -162 0.0001 0 1 -162 0.0001 0
1457.99855 1 -163 0.0001 0 1 -163 0.0001 0
1462.2484 1 -164 0.0001 0 1 -164 0.0001 0
1466.49825 1 -165 0.0001 0 1 -165 0.0001 0
1470.7481 1 -166 0.0001 0 1 -166 0.0001 0
1474.99795 1 -167 0.0001 0 1 -167 0.0001 0
1479.2478 1 -168 0.0001 0 1 -168 0.0001 0
1483.49765 1 -169 0.0001 0 1 -169 0.0001 0
1487.7475 1 -170 0.0001 0 1 -170 0.0001 0
1491.99735 1 -171 0.0001 0 1 -171 0.0001 0
1496.2472 1 -172 0.0001 0 1 -172 0.0001 0
1500.49705 1 -173 0.0001 0 1 -173 0.0001 0
1504.7469 1 -174 0.0001 0 1 -174 0.0001 0
1508.99675 1 -175 0.0001 0 1 -175 0.0001 0
1513.2466 1 -176 0.0001 0 1 -176 0.0001 0
1517.49645 1 -177 0.0001 0 1 -177 0.0001 0
1521.7463 1 -178 0.0001 0 1 -178 0.0001 0
1525.99615 1 -179 0.0001 0 1 -179 0.0001 0
1530.246 1 180 0.0001 0 1 180 0.0001 0
1534.49585 1 179 0.0001 0 1 179 0.0001 0
1538.7457 1 178 0.0001 0 1 178 0.0001 0
1542.99555 1 177 0.0001 0 1 177 0.0001 0
1547.2454 1 176 0.0001 0 1 176 0.0001 0
1551.49525 1 175 0.0001 0 1 175 0.0001 0
1555.7451 1 174 0.0001 0 1 174 0.0001 0
1559.99495 1 173 0.0001 0 1 173 0.0001 0
1564.2448 1 172 0.0001 0 1 172 0.0001 0
1568.49465 1 171 0.0001 0 1 171 0.0001 0
1572.7445 1 170 0.0001 0 1 170 0.0001 0
1576.99435 1 169 0.0001 0 1 169 0.0001 0
1581.2442 1 168 0.0001 0 1 168 0.0001 0
1585.49405 1 167 0.0001 0 1 167 0.0001 0
1589.7439 1 166 0.0001 0 1 166 0.0001 0
1593.99375 1 165 0.0001 0 1 165 0.0001 0
1598.2436 1 164 0.0001 0 1 164 0.0001 0
1602.49345 1 163 0.0001 0 1 163 0.0001 0
1606.7433 1 162 0.0001 0 1 162 0.0001 0
1610.99315 1 161 0.0001 0 1 161 0.0001 0
1615.243 1 160 0.0001 0 1 160 0.0001 0
1619.49285 1 159 0.0001 0 1 159 0.0001 0
1623.7427 1 158 0.0001 0 1 158 0.0001 0
1627.99255 1 157 0.0001 0 1 157 0.0001 0
1632.2424 1 156 0.0001 0 1 156 0.0001 0
1636.49225 1 155 0.0001 0 1 155 0.0001 0
1640.7421 1 154 0.0001 0 1 154 0.0001 0
1644.99195 1 153 0.0001 0 1 153 0.0001 0
1649.2418 1 152 0.0001 0 1 152 0.0001 0
1653.49165 1 151 0.0001 0 1 151 0.0001 0
1657.7415 1 150 0.0001 0 1 150 0.0001 0
1661.99135 1 149 0.0001 0 1 149 0.0001 0
1666.2412 1 148 0.0001 0 1 148 0.0001 0
1670.49105 1 147 0.0001 0 1 147 0.0001 0
1674.7409 1 146 0.0001 0 1 146 0.0001 0
1678.99075 1 145 0.0001 0 1 145 0.0001 0
1683.2406 1 144 0.0001 0 1 144 0.0001 0
1687.49045 1 143 0.0001 0 1 143 0.0001 0
1691.7403 1 142 0.0001 0 1 142 0.0001 0
1695.99015 1 141 0.0001 0 1 141 0.0001 0
1700.24 1 140 0.0001 0 1 140 0.0001 0
1704.48985 1 139 0.0001 0 1 139 0.0001 0
1708.7397 1 138 0.0001 0 1 138 0.0001 0
1712.98955 1 137 0.0001 0 1 137 0.0001 0
1717.2394 1 136 0.0001 0 1 136 0.0001 0
1721.48925 1 135 0.0001 0 1 135 0.0001 0
1725.7391 1 134 0.0001 0 1 134 0.0001 0
1729.98895 1 133 0.0001 0 1 133 0.0001 0
1734.2388 1 132 0.0001 0 1 132 0.0001 0
1738.48865 1 131 0.0001 0 1 131 0.0001 0
1742.7385 1 130 0.0001 0 1 130 0.0001 0
1746.98835 1 129 0.0001 0 1 129 0.0001 0
1751.2382 1 128 0.0001 0 1 128 0.0001 0
1755.48805 1 127 0.0001 0 1 127 0.0001 0
1759.7379 1 126 0.0001 0 1 126 0.0001 0
1763.98775 1 125 0.0001 0 1 125 0.0001 0
1768.2376 1 124 0.0001 0 1 124 0.0001 0
1772.48745 1 123 0.0001 0 1 123 0.0001 0
1776.7373 1 122 0.0001 0 1 122 0.0001 0
1780.98715 1 121 0.0001 0 1 121 0.0001 0
1785.237 1 120 0.0001 0 1 120 0.0001 0
1789.48685 1 119 0.0001 0 1 119 0.0001 0
1793.7367 1 118 0.0001 0 1 118 0.0001 0
1797.98655 1 117 0.0001 0 1 117 0.0001 0
1802.2364 1 116 0.0001 0 1 116 0.0001 0
1806.48625 1 115 0.0001 0 1 115 0.0001 0
1810.7361 1 114 0.0001 0 1 114 0.0001 0
1814.98595 1 113 0.0001 0 1 113 0.0001 0
1819.2358 1 112 0.0001 0 1 112 0.0001 0
1823.48565 1 111 0.0001 0 1 111 0.0001 0
1827.7355 1 110 0.0001 0 1 110 0.0001 0
1831.98535 1 109 0.0001 0 1 109 0.0001 0
1836.2352 1 108 0.0001 0 1 108 0.0001 0
1840.48505 1 107 0.0001 0 1 107 0.0001 0
1844.7349 1 106 0.0001 0 1 106 0.0001 0
1848.98475 1 105 0.0001 0 1 105 0.0001 0
1853.2346 1 104 0.0001 0 1 104 0.0001 0
1857.48445 1 103 0.0001 0 1 103 0.0001 0
1861.7343 1 102 0.0001 0 1 102 0.0001 0
1865.98415 1 101 0.0001 0 1 101 0.0001 0
1870.234 1 100 0.0001 0 1 100 0.0001 0
1874.48385 1 99 0.0001 0 1 99 0.0001 0
1878.7337 1 98 0.0001 0 1 98 0.0001 0
1882.98355 1 97 0.0001 0 1 97 0.0001 0
1887.2334 1 96 0.0001 0 1 96 0.0001 0
1891.48325 1 95 0.0001 0 1 95 0.0001 0
1895.7331 1 94 0.0001 0 1 94 0.0001 0
1899.98295 1 93 0.0001 0 1 93 0.0001 0
1904.2328 1 92 0.0001 0 1 92 0.0001 0
1908.48265 1 91 0.0001 0 1 91 0.0001 0
1912.7325 1 90 0.0001 0 1 90 0.0001 0
1916.98235 1 89 0.0001 0 1 89 0.0001 0
1921.2322 1 88 0.0001 0 1 88 0.0001 0
1925.48205 1 87 0.0001 0 1 87 0.0001 0
1929.7319 1 86 0.0001 0 1 86 0.0001 0
1933.98175 1 85 0.0001 0 1 85 0.0001 0
1938.2316 1 84 0.0001 0 1 84 0.0001 0
1942.48145 1 83 0.0001 0 1 83 0.0001 0
1946.7313 1 82 0.0001 0 1 82 0.0001 0
1950.98115 1 81 0.0001 0 1 81 0.0001 0
1955.231 1 80 0.0001 0 1 80 0.0001 0
1959.48085 1 79 0.0001 0 1 79 0.0001 0
1963.7307 1 78 0.0001 0 1 78 0.0001 0
1967.98055 1 77 0.0001 0 1 77 0.0001 0
1972.2304 1 76 0.0001 0 1 76 0.0001 0
1976.48025 1 75 0.0001 0 1 75 0.0001 0
1980.7301 1 74 0.0001 0 1 74 0.0001 0
1984.97995 1 73 0.0001 0 1 73 0.0001 0
1989.2298 1 72 0.0001 0 1 72 0.0001 0
1993.47965 1 71 0.0001 0 1 71 0.0001 0
1997.7295 1 70 0.0001 0 1 70 0.0001 0
2001.97935 1 69 0.0001 0 1 69 0.0001 0
2006.2292 1 68 0.0001 0 1 68 0.0001 0
2010.47905 1 67 0.0001 0 1 67 0.0001 0
2014.7289 1 66 0.0001 0 1 66 0.0001 0
2018.97875 1 65 0.0001 0 1 65 0.0001 0
2023.2286 1 64 0.0001 0 1 64 0.0001 0
2027.47845 1 63 0.0001 0 1 63 0.0001 0
2031.7283 1 62 0.0001 0 1 62 0.0001 0
2035.97815 1 61 0.0001 0 1 61 0.0001 0
2040.228 1 60 0.0001 0 1 60 0.0001 0
2044.47785 1 59 0.0001 0 1 59 0.0001 0
2048.7277 1 58 0.0001 0 1 58 0.0001 0
2052.97755 1 57 0.0001 0 1 57 0.0001 0
2057.2274 1 56 0.0001 0 1 56 0.0001 0
2061.47725 1 55 0.0001 0 1 55 0.0001 0
2065.7271 1 54 0.0001 0 1 54 0.0001 0
2069.97695 1 53 0.0001 0 1 53 0.0001 0
2074.2268 1 52 0.0001 0 1 52 0.0001 0
2078.47665 1 51 0.0001 0 1 51 0.0001 0
2082.7265 1 50 0.0001 0 1 50 0.0001 0
2086.97635 1 49 0.0001 0 1 49 0.0001 0
2091.2262 1 48 0.0001 0 1 48 0.0001 0
2095.47605 1 47 0.0001 0 1 47 0.0001 0
2099.7259 1 46 0.0001 0 1 46 0.0001 0
2103.97575 1 45 0.0001 0 1 45 0.0001 0
2108.2256 1 44 0.0001 0 1 44 0.0001 0
2112.47545 1 43 0.0001 0 1 43 0.0001 0
2116.7253 1 42 0.0001 0 1 42 0.0001 0
2120.97515 1 41 0.0001 0 1 41 0.0001 0
2125.225 1 40 0.0001 0 1 40 0.0001 0
2129.47485 1 39 0.0001 0 1 39 0.0001 0
2133.7247 1 38 0.0001 0 1 38 0.0001 0
2137.97455 1 37 0.0001 0 1 37 0.0001 0
2142.2244 1 36 0.0001 0 1 36 0.0001 0
